
T04F0 000:410 SEGGER J-Link V4.80g Log File (0001ms, 0257ms total)
T04F0 000:410 DLL Compiled: Feb 13 2014 20:50:02 (0001ms, 0257ms total)
T04F0 000:410 Logging started @ 2016-09-28 22:46 (0001ms, 0257ms total)
T04F0 000:411 JLINK_SetWarnOutHandler(...) (0000ms, 0257ms total)
T04F0 000:411 JLINK_OpenEx(...)
Firmware: J-Link ARM V8 compiled Nov 25 2013 19:20:08
Hardware: V8.00
S/N: 304439649
Feature(s): RDI,FlashDL,FlashBP,JFlash,GDBFULL  returns O.K. (0256ms, 0513ms total)
T04F0 000:667 JLINK_SetErrorOutHandler(...) (0000ms, 0513ms total)
T04F0 000:667 JLINK_ExecCommand("ProjectFile = "F:\exercise\project\JLinkSettings.ini"", ...)  returns 0x00 (0000ms, 0513ms total)
T04F0 000:667 JLINK_ExecCommand("Device = STM32F103VC", ...)Device "STM32F103VC" selected (256 KB flash, 48 KB RAM).  returns 0x00 (0000ms, 0513ms total)
T04F0 000:667 JLINK_ExecCommand("DisableConnectionTimeout", ...)  returns 0x01 (0000ms, 0513ms total)
T04F0 000:667 JLINK_GetHardwareVersion()  returns 0x13880 (0000ms, 0513ms total)
T04F0 000:667 JLINK_GetDLLVersion()  returns 48007 (0000ms, 0513ms total)
T04F0 000:667 JLINK_GetFirmwareString(...) (0000ms, 0513ms total)
T04F0 000:668 JLINK_GetDLLVersion()  returns 48007 (0000ms, 0513ms total)
T04F0 000:668 JLINK_GetCompileDateTime() (0000ms, 0513ms total)
T04F0 000:668 JLINK_GetFirmwareString(...) (0000ms, 0513ms total)
T04F0 000:668 JLINK_GetHardwareVersion()  returns 0x13880 (0000ms, 0513ms total)
T04F0 000:668 JLINK_TIF_Select(JLINKARM_TIF_SWD)  returns 0x00 (0001ms, 0514ms total)
T04F0 000:669 JLINK_SetSpeed(2000) (0000ms, 0514ms total)
T04F0 000:669 JLINK_GetId() >0x108 TIF>Found SWD-DP with ID 0x1BA01477 >0x0D TIF> >0x28 TIF> >0x0D TIF> >0x28 TIF> >0x0D TIF> >0x21 TIF> >0x0D TIF> >0x28 TIF> >0x0D TIF> >0x28 TIF> >0x0D TIF> >0x28 TIF> >0x0D TIF> >0x21 TIF> >0x0D TIF> >0x21 TIF> >0x0D TIF> >0x28 TIF> >0x0D TIF> >0x21 TIF> >0x0D TIF> >0x21 TIF> >0x108 TIF>Found SWD-DP with ID 0x1BA01477 >0x0D TIF> >0x21 TIF> >0x0D TIF> >0x28 TIF> >0x0D TIF> >0x28 TIF> >0x0D TIF> >0x21 TIF> >0x0D TIF> >0x28 TIF> >0x0D TIF> >0x21 TIF> >0x0D TIF> >0x21 TIF>
 >0x0D TIF> >0x21 TIF> >0x0D TIF> >0x21 TIF> >0x0D TIF> >0x28 TIF> >0x0D TIF> >0x28 TIF> >0x0D TIF> >0x21 TIF> >0x0D TIF> >0x28 TIF> >0x0D TIF> >0x28 TIF> >0x0D TIF> >0x28 TIF> >0x0D TIF> >0x21 TIF> >0x0D TIF> >0x21 TIF> >0x0D TIF> >0x28 TIF> >0x0D TIF> >0x21 TIF> >0x0D TIF> >0x21 TIF>Found Cortex-M3 r1p1, Little endian. -- CPU_WriteMem(4 bytes @ 0xE0002000) -- CPU_ReadMem(4 bytes @ 0xE000EDF0) -- CPU_ReadMem(4 bytes @ 0xE0002000)FPUnit: 6 code (BP) slots and 2 literal slots
 -- CPU_ReadMem(4 bytes @ 0xE000EDFC) -- CPU_ReadMem(4 bytes @ 0xE0001000) -- CPU_WriteMem(4 bytes @ 0xE0001000) -- CPU_ReadMem(4 bytes @ 0xE00FF010)TPIU fitted. -- CPU_ReadMem(4 bytes @ 0xE00FF014)ETM fitted. -- CPU_ReadMem(4 bytes @ 0xE00FF018) >0x0D TIF> >0x21 TIF>  returns 0x1BA01477 (0018ms, 0532ms total)
T04F0 000:687 JLINK_GetDeviceFamily()  returns 3 (0000ms, 0532ms total)
T04F0 000:687 JLINK_ReadMem (0xE00FFFF0, 0x0010 Bytes, ...) -- CPU is running -- CPU_ReadMem(16 bytes @ 0xE00FFFF0) -- Data:  0D 00 00 00 10 00 00 00 05 00 00 00 B1 00 00 00  returns 0x00 (0001ms, 0533ms total)
T04F0 000:688 JLINK_ReadMem (0xE00FFFD0, 0x0020 Bytes, ...) -- CPU is running -- CPU_ReadMem(32 bytes @ 0xE00FFFD0) -- Data:  00 00 00 00 00 00 00 00 00 00 00 00 00 00 00 00 ...  returns 0x00 (0000ms, 0533ms total)
T04F0 000:688 JLINK_ReadMem (0xE00FF000, 0x0018 Bytes, ...) -- CPU is running -- CPU_ReadMem(24 bytes @ 0xE00FF000) -- Data:  03 F0 F0 FF 03 20 F0 FF 03 30 F0 FF 03 10 F0 FF ...  returns 0x00 (0001ms, 0534ms total)
T04F0 000:689 JLINK_ReadMemU32(0xE000ED00, 0x0001 Items, ...) -- CPU is running -- CPU_ReadMem(4 bytes @ 0xE000ED00) -- Data:  31 C2 1F 41  returns 0x01 (0000ms, 0534ms total)
T04F0 000:689 JLINK_SetResetType(JLINKARM_RESET_TYPE_NORMAL)  returns JLINKARM_RESET_TYPE_NORMAL (0000ms, 0534ms total)
T04F0 000:689 JLINK_Reset() -- CPU is running -- CPU_WriteMem(4 bytes @ 0xE000EDF0) -- CPU is running -- CPU_WriteMem(4 bytes @ 0xE000EDFC) >0x35 TIF> -- CPU is running -- CPU_WriteMem(4 bytes @ 0xE000ED0C) -- CPU is running -- CPU_ReadMem(4 bytes @ 0xE000EDF0) -- CPU is running -- CPU_ReadMem(4 bytes @ 0xE000EDF0) -- CPU is running -- CPU_WriteMem(4 bytes @ 0xE000EDF0) -- CPU is running -- CPU_WriteMem(4 bytes @ 0xE000EDFC) -- CPU is running -- CPU_ReadMem(4 bytes @ 0xE000EDF0)
 -- CPU_WriteMem(4 bytes @ 0xE0002000) -- CPU_ReadMem(4 bytes @ 0xE000EDFC) -- CPU_ReadMem(4 bytes @ 0xE0001000) (0019ms, 0553ms total)
T04F0 000:708 JLINK_ReadReg(R15 (PC))  returns 0x08001814 (0000ms, 0553ms total)
T04F0 000:708 JLINK_ReadReg(XPSR)  returns 0x01000000 (0000ms, 0553ms total)
T04F0 000:708 JLINK_Halt()  returns 0x00 (0000ms, 0553ms total)
T04F0 000:708 JLINK_IsHalted()  returns TRUE (0000ms, 0553ms total)
T04F0 000:708 JLINK_ReadMemU32(0xE000EDF0, 0x0001 Items, ...) -- CPU_ReadMem(4 bytes @ 0xE000EDF0) -- Data:  03 00 03 00  returns 0x01 (0000ms, 0553ms total)
T04F0 000:708 JLINK_WriteU32(0xE000EDF0, 0xA05F0003) -- CPU_WriteMem(4 bytes @ 0xE000EDF0)  returns 0x00 (0001ms, 0554ms total)
T04F0 000:709 JLINK_WriteU32(0xE000EDFC, 0x01000000) -- CPU_WriteMem(4 bytes @ 0xE000EDFC)  returns 0x00 (0000ms, 0554ms total)
T04F0 000:710 JLINK_GetHWStatus(...)  returns 0x00 (0000ms, 0554ms total)
T04F0 000:710 JLINK_GetNumBPUnits(Type = 0xFFFFFF00)  returns 0x06 (0000ms, 0554ms total)
T04F0 000:710 JLINK_GetNumBPUnits(Type = 0xF0)  returns 0x2000 (0000ms, 0554ms total)
T04F0 000:710 JLINK_GetNumWPUnits()  returns 0x04 (0000ms, 0554ms total)
T04F0 000:710 JLINK_GetSpeed()  returns 0x7D0 (0000ms, 0554ms total)
T04F0 000:710 JLINK_ReadMemU32(0xE000E004, 0x0001 Items, ...) -- CPU_ReadMem(4 bytes @ 0xE000E004) -- Data:  01 00 00 00  returns 0x01 (0001ms, 0555ms total)
T04F0 000:711 JLINK_ReadMemU32(0xE000E004, 0x0001 Items, ...) -- CPU_ReadMem(4 bytes @ 0xE000E004) -- Data:  01 00 00 00  returns 0x01 (0000ms, 0555ms total)
T04F0 000:711 JLINK_WriteMem(0xE0001000, 0x001C Bytes, ...) -- Data:  01 00 00 00 00 00 00 00 00 00 00 00 00 00 00 00 ... -- CPU_WriteMem(28 bytes @ 0xE0001000)  returns 0x1C (0001ms, 0556ms total)
T04F0 000:712 JLINK_ReadMem (0xE0001000, 0x001C Bytes, ...) -- CPU_ReadMem(28 bytes @ 0xE0001000) -- Data:  01 00 00 40 00 00 00 00 00 00 00 00 00 00 00 00 ...  returns 0x00 (0001ms, 0557ms total)
T04F0 000:713 JLINK_ReadReg(R15 (PC))  returns 0x08001814 (0000ms, 0557ms total)
T04F0 000:713 JLINK_ReadReg(XPSR)  returns 0x01000000 (0000ms, 0557ms total)
T04F0 000:790 JLINK_SetResetType(JLINKARM_RESET_TYPE_NORMAL)  returns JLINKARM_RESET_TYPE_NORMAL (0000ms, 0557ms total)
T04F0 000:790 JLINK_Reset() -- CPU_WriteMem(4 bytes @ 0xE000EDF0) -- CPU_WriteMem(4 bytes @ 0xE000EDFC) >0x35 TIF> -- CPU_WriteMem(4 bytes @ 0xE000ED0C) -- CPU_ReadMem(4 bytes @ 0xE000EDF0) -- CPU_ReadMem(4 bytes @ 0xE000EDF0) -- CPU_WriteMem(4 bytes @ 0xE000EDF0) -- CPU_WriteMem(4 bytes @ 0xE000EDFC) -- CPU is running -- CPU_ReadMem(4 bytes @ 0xE000EDF0) -- CPU_WriteMem(4 bytes @ 0xE0002000) -- CPU_ReadMem(4 bytes @ 0xE000EDFC) -- CPU_ReadMem(4 bytes @ 0xE0001000) (0018ms, 0575ms total)
T04F0 000:808 JLINK_ReadReg(R15 (PC))  returns 0x08001814 (0000ms, 0575ms total)
T04F0 000:808 JLINK_ReadReg(XPSR)  returns 0x01000000 (0000ms, 0575ms total)
T04F0 000:808 JLINK_ReadMem (0x08001714, 0x003C Bytes, ...) -- CPU_ReadMem(128 bytes @ 0x08001700) -- Updating C cache (128 bytes @ 0x08001700) -- Read from C cache (60 bytes @ 0x08001714) -- Data:  10 B5 36 48 00 68 40 F0 01 00 34 49 08 60 08 46 ...  returns 0x00 (0002ms, 0577ms total)
T04F0 000:810 JLINK_ReadMem (0x08001750, 0x003C Bytes, ...) -- CPU_ReadMem(64 bytes @ 0x08001780) -- Updating C cache (64 bytes @ 0x08001780) -- Read from C cache (60 bytes @ 0x08001750) -- Data:  1F 00 88 60 FF F7 DA FF 4F F0 00 60 28 49 08 60 ...  returns 0x00 (0001ms, 0578ms total)
T04F0 000:811 JLINK_ReadMem (0x0800178C, 0x003C Bytes, ...) -- CPU_ReadMem(64 bytes @ 0x080017C0) -- Updating C cache (64 bytes @ 0x080017C0) -- Read from C cache (60 bytes @ 0x0800178C) -- Data:  23 E0 18 4B 5B 68 03 F4 70 10 16 4B 5B 68 03 F4 ...  returns 0x00 (0002ms, 0580ms total)
T04F0 000:813 JLINK_ReadMem (0x080017C8, 0x0038 Bytes, ...) -- Read from C cache (56 bytes @ 0x080017C8) -- Data:  0F 4C 23 60 03 E0 0D 4B 0D 4C 23 60 00 BF 00 BF ...  returns 0x00 (0000ms, 0580ms total)
T04F0 000:813 JLINK_ReadMem (0x08001800, 0x0004 Bytes, ...) -- CPU_ReadMem(64 bytes @ 0x08001800) -- Updating C cache (64 bytes @ 0x08001800) -- Read from C cache (4 bytes @ 0x08001800) -- Data:  08 ED 00 E0  returns 0x00 (0001ms, 0581ms total)
T04F0 000:814 JLINK_ReadMem (0x0800180A, 0x0002 Bytes, ...) -- Read from C cache (2 bytes @ 0x0800180A) -- Data:  00 20  returns 0x00 (0000ms, 0581ms total)
T04F0 000:814 JLINK_ReadMem (0x0800180C, 0x003C Bytes, ...) -- CPU_ReadMem(64 bytes @ 0x08001840) -- Updating C cache (64 bytes @ 0x08001840) -- Read from C cache (60 bytes @ 0x0800180C) -- Data:  00 09 3D 00 20 00 00 20 09 48 80 47 09 48 00 47 ...  returns 0x00 (0001ms, 0582ms total)
T04F0 000:892 JLINK_ReadMem (0x40010800, 0x0018 Bytes, ...) -- CPU_ReadMem(24 bytes @ 0x40010800) -- Data:  44 44 44 44 44 44 84 88 00 00 00 00 00 A0 00 00 ...  returns 0x00 (0000ms, 0582ms total)
T04F0 000:893 JLINK_ReadMem (0x40010818, 0x0004 Bytes, ...) -- CPU_ReadMem(4 bytes @ 0x40010818) -- Data:  00 00 00 00  returns 0x00 (0000ms, 0582ms total)
T04F0 000:893 JLINK_ReadMem (0x40010800, 0x0004 Bytes, ...) -- CPU_ReadMem(4 bytes @ 0x40010800) -- Data:  44 44 44 44  returns 0x00 (0000ms, 0582ms total)
T04F0 000:894 JLINK_ReadMem (0x40010800, 0x0004 Bytes, ...) -- CPU_ReadMem(4 bytes @ 0x40010800) -- Data:  44 44 44 44  returns 0x00 (0000ms, 0582ms total)
T04F0 000:894 JLINK_ReadMem (0x40010800, 0x0004 Bytes, ...) -- CPU_ReadMem(4 bytes @ 0x40010800) -- Data:  44 44 44 44  returns 0x00 (0000ms, 0582ms total)
T04F0 000:894 JLINK_ReadMem (0x40010800, 0x0004 Bytes, ...) -- CPU_ReadMem(4 bytes @ 0x40010800) -- Data:  44 44 44 44  returns 0x00 (0001ms, 0583ms total)
T04F0 000:895 JLINK_ReadMem (0x40010800, 0x0004 Bytes, ...) -- CPU_ReadMem(4 bytes @ 0x40010800) -- Data:  44 44 44 44  returns 0x00 (0000ms, 0583ms total)
T04F0 000:895 JLINK_ReadMem (0x40010800, 0x0004 Bytes, ...) -- CPU_ReadMem(4 bytes @ 0x40010800) -- Data:  44 44 44 44  returns 0x00 (0001ms, 0584ms total)
T04F0 000:896 JLINK_ReadMem (0x40010800, 0x0004 Bytes, ...) -- CPU_ReadMem(4 bytes @ 0x40010800) -- Data:  44 44 44 44  returns 0x00 (0000ms, 0584ms total)
T04F0 000:896 JLINK_ReadMem (0x40010800, 0x0004 Bytes, ...) -- CPU_ReadMem(4 bytes @ 0x40010800) -- Data:  44 44 44 44  returns 0x00 (0001ms, 0585ms total)
T04F0 000:897 JLINK_ReadMem (0x40010800, 0x0004 Bytes, ...) -- CPU_ReadMem(4 bytes @ 0x40010800) -- Data:  44 44 44 44  returns 0x00 (0000ms, 0585ms total)
T04F0 000:897 JLINK_ReadMem (0x40010800, 0x0004 Bytes, ...) -- CPU_ReadMem(4 bytes @ 0x40010800) -- Data:  44 44 44 44  returns 0x00 (0001ms, 0586ms total)
T04F0 000:898 JLINK_ReadMem (0x40010800, 0x0004 Bytes, ...) -- CPU_ReadMem(4 bytes @ 0x40010800) -- Data:  44 44 44 44  returns 0x00 (0000ms, 0586ms total)
T04F0 000:898 JLINK_ReadMem (0x40010800, 0x0004 Bytes, ...) -- CPU_ReadMem(4 bytes @ 0x40010800) -- Data:  44 44 44 44  returns 0x00 (0001ms, 0587ms total)
T04F0 000:899 JLINK_ReadMem (0x40010800, 0x0004 Bytes, ...) -- CPU_ReadMem(4 bytes @ 0x40010800) -- Data:  44 44 44 44  returns 0x00 (0000ms, 0587ms total)
T04F0 000:899 JLINK_ReadMem (0x40010800, 0x0004 Bytes, ...) -- CPU_ReadMem(4 bytes @ 0x40010800) -- Data:  44 44 44 44  returns 0x00 (0001ms, 0588ms total)
T04F0 000:900 JLINK_ReadMem (0x40010800, 0x0004 Bytes, ...) -- CPU_ReadMem(4 bytes @ 0x40010800) -- Data:  44 44 44 44  returns 0x00 (0000ms, 0588ms total)
T04F0 000:900 JLINK_ReadMem (0x40010800, 0x0004 Bytes, ...) -- CPU_ReadMem(4 bytes @ 0x40010800) -- Data:  44 44 44 44  returns 0x00 (0000ms, 0588ms total)
T04F0 000:900 JLINK_ReadMem (0x40010800, 0x0004 Bytes, ...) -- CPU_ReadMem(4 bytes @ 0x40010800) -- Data:  44 44 44 44  returns 0x00 (0001ms, 0589ms total)
T04F0 000:901 JLINK_ReadMem (0x40010804, 0x0004 Bytes, ...) -- CPU_ReadMem(4 bytes @ 0x40010804) -- Data:  44 44 84 88  returns 0x00 (0000ms, 0589ms total)
T04F0 000:901 JLINK_ReadMem (0x40010804, 0x0004 Bytes, ...) -- CPU_ReadMem(4 bytes @ 0x40010804) -- Data:  44 44 84 88  returns 0x00 (0001ms, 0590ms total)
T04F0 000:902 JLINK_ReadMem (0x40010804, 0x0004 Bytes, ...) -- CPU_ReadMem(4 bytes @ 0x40010804) -- Data:  44 44 84 88  returns 0x00 (0000ms, 0590ms total)
T04F0 000:902 JLINK_ReadMem (0x40010804, 0x0004 Bytes, ...) -- CPU_ReadMem(4 bytes @ 0x40010804) -- Data:  44 44 84 88  returns 0x00 (0001ms, 0591ms total)
T04F0 000:903 JLINK_ReadMem (0x40010804, 0x0004 Bytes, ...) -- CPU_ReadMem(4 bytes @ 0x40010804) -- Data:  44 44 84 88  returns 0x00 (0000ms, 0591ms total)
T04F0 000:903 JLINK_ReadMem (0x40010804, 0x0004 Bytes, ...) -- CPU_ReadMem(4 bytes @ 0x40010804) -- Data:  44 44 84 88  returns 0x00 (0001ms, 0592ms total)
T04F0 000:904 JLINK_ReadMem (0x40010804, 0x0004 Bytes, ...) -- CPU_ReadMem(4 bytes @ 0x40010804) -- Data:  44 44 84 88  returns 0x00 (0000ms, 0592ms total)
T04F0 000:904 JLINK_ReadMem (0x40010804, 0x0004 Bytes, ...) -- CPU_ReadMem(4 bytes @ 0x40010804) -- Data:  44 44 84 88  returns 0x00 (0001ms, 0593ms total)
T04F0 000:905 JLINK_ReadMem (0x40010804, 0x0004 Bytes, ...) -- CPU_ReadMem(4 bytes @ 0x40010804) -- Data:  44 44 84 88  returns 0x00 (0000ms, 0593ms total)
T04F0 000:905 JLINK_ReadMem (0x40010804, 0x0004 Bytes, ...) -- CPU_ReadMem(4 bytes @ 0x40010804) -- Data:  44 44 84 88  returns 0x00 (0000ms, 0593ms total)
T04F0 000:905 JLINK_ReadMem (0x40010804, 0x0004 Bytes, ...) -- CPU_ReadMem(4 bytes @ 0x40010804) -- Data:  44 44 84 88  returns 0x00 (0001ms, 0594ms total)
T04F0 000:906 JLINK_ReadMem (0x40010804, 0x0004 Bytes, ...) -- CPU_ReadMem(4 bytes @ 0x40010804) -- Data:  44 44 84 88  returns 0x00 (0000ms, 0594ms total)
T04F0 000:906 JLINK_ReadMem (0x40010804, 0x0004 Bytes, ...) -- CPU_ReadMem(4 bytes @ 0x40010804) -- Data:  44 44 84 88  returns 0x00 (0001ms, 0595ms total)
T04F0 000:907 JLINK_ReadMem (0x40010804, 0x0004 Bytes, ...) -- CPU_ReadMem(4 bytes @ 0x40010804) -- Data:  44 44 84 88  returns 0x00 (0000ms, 0595ms total)
T04F0 000:907 JLINK_ReadMem (0x40010804, 0x0004 Bytes, ...) -- CPU_ReadMem(4 bytes @ 0x40010804) -- Data:  44 44 84 88  returns 0x00 (0001ms, 0596ms total)
T04F0 000:908 JLINK_ReadMem (0x40010804, 0x0004 Bytes, ...) -- CPU_ReadMem(4 bytes @ 0x40010804) -- Data:  44 44 84 88  returns 0x00 (0000ms, 0596ms total)
T04F0 000:908 JLINK_ReadMem (0x40010804, 0x0004 Bytes, ...) -- CPU_ReadMem(4 bytes @ 0x40010804) -- Data:  44 44 84 88  returns 0x00 (0001ms, 0597ms total)
T04F0 000:909 JLINK_ReadMem (0x4001080C, 0x0004 Bytes, ...) -- CPU_ReadMem(4 bytes @ 0x4001080C) -- Data:  00 A0 00 00  returns 0x00 (0000ms, 0597ms total)
T04F0 000:909 JLINK_ReadMem (0x4001080C, 0x0004 Bytes, ...) -- CPU_ReadMem(4 bytes @ 0x4001080C) -- Data:  00 A0 00 00  returns 0x00 (0001ms, 0598ms total)
T04F0 000:910 JLINK_ReadMem (0x4001080C, 0x0004 Bytes, ...) -- CPU_ReadMem(4 bytes @ 0x4001080C) -- Data:  00 A0 00 00  returns 0x00 (0000ms, 0598ms total)
T04F0 000:910 JLINK_ReadMem (0x4001080C, 0x0004 Bytes, ...) -- CPU_ReadMem(4 bytes @ 0x4001080C) -- Data:  00 A0 00 00  returns 0x00 (0000ms, 0598ms total)
T04F0 000:910 JLINK_ReadMem (0x4001080C, 0x0004 Bytes, ...) -- CPU_ReadMem(4 bytes @ 0x4001080C) -- Data:  00 A0 00 00  returns 0x00 (0001ms, 0599ms total)
T04F0 000:911 JLINK_ReadMem (0x4001080C, 0x0004 Bytes, ...) -- CPU_ReadMem(4 bytes @ 0x4001080C) -- Data:  00 A0 00 00  returns 0x00 (0000ms, 0599ms total)
T04F0 000:911 JLINK_ReadMem (0x4001080C, 0x0004 Bytes, ...) -- CPU_ReadMem(4 bytes @ 0x4001080C) -- Data:  00 A0 00 00  returns 0x00 (0001ms, 0600ms total)
T04F0 000:912 JLINK_ReadMem (0x4001080C, 0x0004 Bytes, ...) -- CPU_ReadMem(4 bytes @ 0x4001080C) -- Data:  00 A0 00 00  returns 0x00 (0000ms, 0600ms total)
T04F0 000:912 JLINK_ReadMem (0x4001080C, 0x0004 Bytes, ...) -- CPU_ReadMem(4 bytes @ 0x4001080C) -- Data:  00 A0 00 00  returns 0x00 (0001ms, 0601ms total)
T04F0 000:913 JLINK_ReadMem (0x4001080C, 0x0004 Bytes, ...) -- CPU_ReadMem(4 bytes @ 0x4001080C) -- Data:  00 A0 00 00  returns 0x00 (0000ms, 0601ms total)
T04F0 000:913 JLINK_ReadMem (0x4001080C, 0x0004 Bytes, ...) -- CPU_ReadMem(4 bytes @ 0x4001080C) -- Data:  00 A0 00 00  returns 0x00 (0001ms, 0602ms total)
T04F0 000:914 JLINK_ReadMem (0x4001080C, 0x0004 Bytes, ...) -- CPU_ReadMem(4 bytes @ 0x4001080C) -- Data:  00 A0 00 00  returns 0x00 (0000ms, 0602ms total)
T04F0 000:914 JLINK_ReadMem (0x4001080C, 0x0004 Bytes, ...) -- CPU_ReadMem(4 bytes @ 0x4001080C) -- Data:  00 A0 00 00  returns 0x00 (0001ms, 0603ms total)
T04F0 000:915 JLINK_ReadMem (0x4001080C, 0x0004 Bytes, ...) -- CPU_ReadMem(4 bytes @ 0x4001080C) -- Data:  00 A0 00 00  returns 0x00 (0000ms, 0603ms total)
T04F0 000:915 JLINK_ReadMem (0x4001080C, 0x0004 Bytes, ...) -- CPU_ReadMem(4 bytes @ 0x4001080C) -- Data:  00 A0 00 00  returns 0x00 (0000ms, 0603ms total)
T04F0 000:915 JLINK_ReadMem (0x4001080C, 0x0004 Bytes, ...) -- CPU_ReadMem(4 bytes @ 0x4001080C) -- Data:  00 A0 00 00  returns 0x00 (0001ms, 0604ms total)
T04F0 000:916 JLINK_ReadMem (0x4001080C, 0x0004 Bytes, ...) -- CPU_ReadMem(4 bytes @ 0x4001080C) -- Data:  00 A0 00 00  returns 0x00 (0000ms, 0604ms total)
T04F0 000:936 JLINK_ReadMem (0x40010C00, 0x0018 Bytes, ...) -- CPU_ReadMem(24 bytes @ 0x40010C00) -- Data:  44 44 48 44 44 44 44 44 00 00 00 00 10 00 00 00 ...  returns 0x00 (0000ms, 0604ms total)
T04F0 000:936 JLINK_ReadMem (0x40010C18, 0x0004 Bytes, ...) -- CPU_ReadMem(4 bytes @ 0x40010C18) -- Data:  00 00 00 00  returns 0x00 (0001ms, 0605ms total)
T04F0 000:937 JLINK_ReadMem (0x40010C00, 0x0004 Bytes, ...) -- CPU_ReadMem(4 bytes @ 0x40010C00) -- Data:  44 44 48 44  returns 0x00 (0000ms, 0605ms total)
T04F0 000:937 JLINK_ReadMem (0x40010C00, 0x0004 Bytes, ...) -- CPU_ReadMem(4 bytes @ 0x40010C00) -- Data:  44 44 48 44  returns 0x00 (0001ms, 0606ms total)
T04F0 000:938 JLINK_ReadMem (0x40010C00, 0x0004 Bytes, ...) -- CPU_ReadMem(4 bytes @ 0x40010C00) -- Data:  44 44 48 44  returns 0x00 (0000ms, 0606ms total)
T04F0 000:938 JLINK_ReadMem (0x40010C00, 0x0004 Bytes, ...) -- CPU_ReadMem(4 bytes @ 0x40010C00) -- Data:  44 44 48 44  returns 0x00 (0001ms, 0607ms total)
T04F0 000:939 JLINK_ReadMem (0x40010C00, 0x0004 Bytes, ...) -- CPU_ReadMem(4 bytes @ 0x40010C00) -- Data:  44 44 48 44  returns 0x00 (0000ms, 0607ms total)
T04F0 000:939 JLINK_ReadMem (0x40010C00, 0x0004 Bytes, ...) -- CPU_ReadMem(4 bytes @ 0x40010C00) -- Data:  44 44 48 44  returns 0x00 (0001ms, 0608ms total)
T04F0 000:940 JLINK_ReadMem (0x40010C00, 0x0004 Bytes, ...) -- CPU_ReadMem(4 bytes @ 0x40010C00) -- Data:  44 44 48 44  returns 0x00 (0000ms, 0608ms total)
T04F0 000:940 JLINK_ReadMem (0x40010C00, 0x0004 Bytes, ...) -- CPU_ReadMem(4 bytes @ 0x40010C00) -- Data:  44 44 48 44  returns 0x00 (0001ms, 0609ms total)
T04F0 000:941 JLINK_ReadMem (0x40010C00, 0x0004 Bytes, ...) -- CPU_ReadMem(4 bytes @ 0x40010C00) -- Data:  44 44 48 44  returns 0x00 (0000ms, 0609ms total)
T04F0 000:941 JLINK_ReadMem (0x40010C00, 0x0004 Bytes, ...) -- CPU_ReadMem(4 bytes @ 0x40010C00) -- Data:  44 44 48 44  returns 0x00 (0000ms, 0609ms total)
T04F0 000:941 JLINK_ReadMem (0x40010C00, 0x0004 Bytes, ...) -- CPU_ReadMem(4 bytes @ 0x40010C00) -- Data:  44 44 48 44  returns 0x00 (0001ms, 0610ms total)
T04F0 000:942 JLINK_ReadMem (0x40010C00, 0x0004 Bytes, ...) -- CPU_ReadMem(4 bytes @ 0x40010C00) -- Data:  44 44 48 44  returns 0x00 (0000ms, 0610ms total)
T04F0 000:942 JLINK_ReadMem (0x40010C00, 0x0004 Bytes, ...) -- CPU_ReadMem(4 bytes @ 0x40010C00) -- Data:  44 44 48 44  returns 0x00 (0001ms, 0611ms total)
T04F0 000:943 JLINK_ReadMem (0x40010C00, 0x0004 Bytes, ...) -- CPU_ReadMem(4 bytes @ 0x40010C00) -- Data:  44 44 48 44  returns 0x00 (0000ms, 0611ms total)
T04F0 000:943 JLINK_ReadMem (0x40010C00, 0x0004 Bytes, ...) -- CPU_ReadMem(4 bytes @ 0x40010C00) -- Data:  44 44 48 44  returns 0x00 (0001ms, 0612ms total)
T04F0 000:944 JLINK_ReadMem (0x40010C00, 0x0004 Bytes, ...) -- CPU_ReadMem(4 bytes @ 0x40010C00) -- Data:  44 44 48 44  returns 0x00 (0000ms, 0612ms total)
T04F0 000:944 JLINK_ReadMem (0x40010C00, 0x0004 Bytes, ...) -- CPU_ReadMem(4 bytes @ 0x40010C00) -- Data:  44 44 48 44  returns 0x00 (0001ms, 0613ms total)
T04F0 000:945 JLINK_ReadMem (0x40010C04, 0x0004 Bytes, ...) -- CPU_ReadMem(4 bytes @ 0x40010C04) -- Data:  44 44 44 44  returns 0x00 (0000ms, 0613ms total)
T04F0 000:945 JLINK_ReadMem (0x40010C04, 0x0004 Bytes, ...) -- CPU_ReadMem(4 bytes @ 0x40010C04) -- Data:  44 44 44 44  returns 0x00 (0001ms, 0614ms total)
T04F0 000:946 JLINK_ReadMem (0x40010C04, 0x0004 Bytes, ...) -- CPU_ReadMem(4 bytes @ 0x40010C04) -- Data:  44 44 44 44  returns 0x00 (0000ms, 0614ms total)
T04F0 000:946 JLINK_ReadMem (0x40010C04, 0x0004 Bytes, ...) -- CPU_ReadMem(4 bytes @ 0x40010C04) -- Data:  44 44 44 44  returns 0x00 (0000ms, 0614ms total)
T04F0 000:946 JLINK_ReadMem (0x40010C04, 0x0004 Bytes, ...) -- CPU_ReadMem(4 bytes @ 0x40010C04) -- Data:  44 44 44 44  returns 0x00 (0001ms, 0615ms total)
T04F0 000:947 JLINK_ReadMem (0x40010C04, 0x0004 Bytes, ...) -- CPU_ReadMem(4 bytes @ 0x40010C04) -- Data:  44 44 44 44  returns 0x00 (0000ms, 0615ms total)
T04F0 000:947 JLINK_ReadMem (0x40010C04, 0x0004 Bytes, ...) -- CPU_ReadMem(4 bytes @ 0x40010C04) -- Data:  44 44 44 44  returns 0x00 (0001ms, 0616ms total)
T04F0 000:948 JLINK_ReadMem (0x40010C04, 0x0004 Bytes, ...) -- CPU_ReadMem(4 bytes @ 0x40010C04) -- Data:  44 44 44 44  returns 0x00 (0000ms, 0616ms total)
T04F0 000:948 JLINK_ReadMem (0x40010C04, 0x0004 Bytes, ...) -- CPU_ReadMem(4 bytes @ 0x40010C04) -- Data:  44 44 44 44  returns 0x00 (0001ms, 0617ms total)
T04F0 000:949 JLINK_ReadMem (0x40010C04, 0x0004 Bytes, ...) -- CPU_ReadMem(4 bytes @ 0x40010C04) -- Data:  44 44 44 44  returns 0x00 (0000ms, 0617ms total)
T04F0 000:949 JLINK_ReadMem (0x40010C04, 0x0004 Bytes, ...) -- CPU_ReadMem(4 bytes @ 0x40010C04) -- Data:  44 44 44 44  returns 0x00 (0001ms, 0618ms total)
T04F0 000:950 JLINK_ReadMem (0x40010C04, 0x0004 Bytes, ...) -- CPU_ReadMem(4 bytes @ 0x40010C04) -- Data:  44 44 44 44  returns 0x00 (0000ms, 0618ms total)
T04F0 000:950 JLINK_ReadMem (0x40010C04, 0x0004 Bytes, ...) -- CPU_ReadMem(4 bytes @ 0x40010C04) -- Data:  44 44 44 44  returns 0x00 (0001ms, 0619ms total)
T04F0 000:951 JLINK_ReadMem (0x40010C04, 0x0004 Bytes, ...) -- CPU_ReadMem(4 bytes @ 0x40010C04) -- Data:  44 44 44 44  returns 0x00 (0000ms, 0619ms total)
T04F0 000:951 JLINK_ReadMem (0x40010C04, 0x0004 Bytes, ...) -- CPU_ReadMem(4 bytes @ 0x40010C04) -- Data:  44 44 44 44  returns 0x00 (0000ms, 0619ms total)
T04F0 000:951 JLINK_ReadMem (0x40010C04, 0x0004 Bytes, ...) -- CPU_ReadMem(4 bytes @ 0x40010C04) -- Data:  44 44 44 44  returns 0x00 (0001ms, 0620ms total)
T04F0 000:952 JLINK_ReadMem (0x40010C04, 0x0004 Bytes, ...) -- CPU_ReadMem(4 bytes @ 0x40010C04) -- Data:  44 44 44 44  returns 0x00 (0000ms, 0620ms total)
T04F0 000:952 JLINK_ReadMem (0x40010C0C, 0x0004 Bytes, ...) -- CPU_ReadMem(4 bytes @ 0x40010C0C) -- Data:  10 00 00 00  returns 0x00 (0001ms, 0621ms total)
T04F0 000:953 JLINK_ReadMem (0x40010C0C, 0x0004 Bytes, ...) -- CPU_ReadMem(4 bytes @ 0x40010C0C) -- Data:  10 00 00 00  returns 0x00 (0000ms, 0621ms total)
T04F0 000:953 JLINK_ReadMem (0x40010C0C, 0x0004 Bytes, ...) -- CPU_ReadMem(4 bytes @ 0x40010C0C) -- Data:  10 00 00 00  returns 0x00 (0001ms, 0622ms total)
T04F0 000:954 JLINK_ReadMem (0x40010C0C, 0x0004 Bytes, ...) -- CPU_ReadMem(4 bytes @ 0x40010C0C) -- Data:  10 00 00 00  returns 0x00 (0000ms, 0622ms total)
T04F0 000:954 JLINK_ReadMem (0x40010C0C, 0x0004 Bytes, ...) -- CPU_ReadMem(4 bytes @ 0x40010C0C) -- Data:  10 00 00 00  returns 0x00 (0001ms, 0623ms total)
T04F0 000:955 JLINK_ReadMem (0x40010C0C, 0x0004 Bytes, ...) -- CPU_ReadMem(4 bytes @ 0x40010C0C) -- Data:  10 00 00 00  returns 0x00 (0000ms, 0623ms total)
T04F0 000:955 JLINK_ReadMem (0x40010C0C, 0x0004 Bytes, ...) -- CPU_ReadMem(4 bytes @ 0x40010C0C) -- Data:  10 00 00 00  returns 0x00 (0000ms, 0623ms total)
T04F0 000:955 JLINK_ReadMem (0x40010C0C, 0x0004 Bytes, ...) -- CPU_ReadMem(4 bytes @ 0x40010C0C) -- Data:  10 00 00 00  returns 0x00 (0001ms, 0624ms total)
T04F0 000:956 JLINK_ReadMem (0x40010C0C, 0x0004 Bytes, ...) -- CPU_ReadMem(4 bytes @ 0x40010C0C) -- Data:  10 00 00 00  returns 0x00 (0000ms, 0624ms total)
T04F0 000:956 JLINK_ReadMem (0x40010C0C, 0x0004 Bytes, ...) -- CPU_ReadMem(4 bytes @ 0x40010C0C) -- Data:  10 00 00 00  returns 0x00 (0001ms, 0625ms total)
T04F0 000:957 JLINK_ReadMem (0x40010C0C, 0x0004 Bytes, ...) -- CPU_ReadMem(4 bytes @ 0x40010C0C) -- Data:  10 00 00 00  returns 0x00 (0000ms, 0625ms total)
T04F0 000:957 JLINK_ReadMem (0x40010C0C, 0x0004 Bytes, ...) -- CPU_ReadMem(4 bytes @ 0x40010C0C) -- Data:  10 00 00 00  returns 0x00 (0001ms, 0626ms total)
T04F0 000:958 JLINK_ReadMem (0x40010C0C, 0x0004 Bytes, ...) -- CPU_ReadMem(4 bytes @ 0x40010C0C) -- Data:  10 00 00 00  returns 0x00 (0000ms, 0626ms total)
T04F0 000:958 JLINK_ReadMem (0x40010C0C, 0x0004 Bytes, ...) -- CPU_ReadMem(4 bytes @ 0x40010C0C) -- Data:  10 00 00 00  returns 0x00 (0001ms, 0627ms total)
T04F0 000:959 JLINK_ReadMem (0x40010C0C, 0x0004 Bytes, ...) -- CPU_ReadMem(4 bytes @ 0x40010C0C) -- Data:  10 00 00 00  returns 0x00 (0000ms, 0627ms total)
T04F0 000:959 JLINK_ReadMem (0x40010C0C, 0x0004 Bytes, ...) -- CPU_ReadMem(4 bytes @ 0x40010C0C) -- Data:  10 00 00 00  returns 0x00 (0001ms, 0628ms total)
T04F0 000:960 JLINK_ReadMem (0x40010C0C, 0x0004 Bytes, ...) -- CPU_ReadMem(4 bytes @ 0x40010C0C) -- Data:  10 00 00 00  returns 0x00 (0000ms, 0628ms total)
T04F0 000:979 JLINK_ReadMem (0x40011000, 0x0018 Bytes, ...) -- CPU_ReadMem(24 bytes @ 0x40011000) -- Data:  44 44 44 44 44 44 44 44 00 00 00 00 00 00 00 00 ...  returns 0x00 (0000ms, 0628ms total)
T04F0 000:979 JLINK_ReadMem (0x40011018, 0x0004 Bytes, ...) -- CPU_ReadMem(4 bytes @ 0x40011018) -- Data:  00 00 00 00  returns 0x00 (0001ms, 0629ms total)
T04F0 000:980 JLINK_ReadMem (0x40011000, 0x0004 Bytes, ...) -- CPU_ReadMem(4 bytes @ 0x40011000) -- Data:  44 44 44 44  returns 0x00 (0000ms, 0629ms total)
T04F0 000:980 JLINK_ReadMem (0x40011000, 0x0004 Bytes, ...) -- CPU_ReadMem(4 bytes @ 0x40011000) -- Data:  44 44 44 44  returns 0x00 (0001ms, 0630ms total)
T04F0 000:981 JLINK_ReadMem (0x40011000, 0x0004 Bytes, ...) -- CPU_ReadMem(4 bytes @ 0x40011000) -- Data:  44 44 44 44  returns 0x00 (0000ms, 0630ms total)
T04F0 000:981 JLINK_ReadMem (0x40011000, 0x0004 Bytes, ...) -- CPU_ReadMem(4 bytes @ 0x40011000) -- Data:  44 44 44 44  returns 0x00 (0001ms, 0631ms total)
T04F0 000:982 JLINK_ReadMem (0x40011000, 0x0004 Bytes, ...) -- CPU_ReadMem(4 bytes @ 0x40011000) -- Data:  44 44 44 44  returns 0x00 (0000ms, 0631ms total)
T04F0 000:984 JLINK_ReadMem (0x40011000, 0x0004 Bytes, ...) -- CPU_ReadMem(4 bytes @ 0x40011000) -- Data:  44 44 44 44  returns 0x00 (0001ms, 0632ms total)
T04F0 000:985 JLINK_ReadMem (0x40011000, 0x0004 Bytes, ...) -- CPU_ReadMem(4 bytes @ 0x40011000) -- Data:  44 44 44 44  returns 0x00 (0000ms, 0632ms total)
T04F0 000:985 JLINK_ReadMem (0x40011000, 0x0004 Bytes, ...) -- CPU_ReadMem(4 bytes @ 0x40011000) -- Data:  44 44 44 44  returns 0x00 (0001ms, 0633ms total)
T04F0 000:986 JLINK_ReadMem (0x40011000, 0x0004 Bytes, ...) -- CPU_ReadMem(4 bytes @ 0x40011000) -- Data:  44 44 44 44  returns 0x00 (0000ms, 0633ms total)
T04F0 000:986 JLINK_ReadMem (0x40011000, 0x0004 Bytes, ...) -- CPU_ReadMem(4 bytes @ 0x40011000) -- Data:  44 44 44 44  returns 0x00 (0001ms, 0634ms total)
T04F0 000:987 JLINK_ReadMem (0x40011000, 0x0004 Bytes, ...) -- CPU_ReadMem(4 bytes @ 0x40011000) -- Data:  44 44 44 44  returns 0x00 (0000ms, 0634ms total)
T04F0 000:987 JLINK_ReadMem (0x40011000, 0x0004 Bytes, ...) -- CPU_ReadMem(4 bytes @ 0x40011000) -- Data:  44 44 44 44  returns 0x00 (0001ms, 0635ms total)
T04F0 000:988 JLINK_ReadMem (0x40011000, 0x0004 Bytes, ...) -- CPU_ReadMem(4 bytes @ 0x40011000) -- Data:  44 44 44 44  returns 0x00 (0000ms, 0635ms total)
T04F0 000:988 JLINK_ReadMem (0x40011000, 0x0004 Bytes, ...) -- CPU_ReadMem(4 bytes @ 0x40011000) -- Data:  44 44 44 44  returns 0x00 (0001ms, 0636ms total)
T04F0 000:989 JLINK_ReadMem (0x40011000, 0x0004 Bytes, ...) -- CPU_ReadMem(4 bytes @ 0x40011000) -- Data:  44 44 44 44  returns 0x00 (0000ms, 0636ms total)
T04F0 000:989 JLINK_ReadMem (0x40011000, 0x0004 Bytes, ...) -- CPU_ReadMem(4 bytes @ 0x40011000) -- Data:  44 44 44 44  returns 0x00 (0000ms, 0636ms total)
T04F0 000:990 JLINK_ReadMem (0x40011000, 0x0004 Bytes, ...) -- CPU_ReadMem(4 bytes @ 0x40011000) -- Data:  44 44 44 44  returns 0x00 (0000ms, 0637ms total)
T04F0 000:990 JLINK_ReadMem (0x40011004, 0x0004 Bytes, ...) -- CPU_ReadMem(4 bytes @ 0x40011004) -- Data:  44 44 44 44  returns 0x00 (0000ms, 0637ms total)
T04F0 000:990 JLINK_ReadMem (0x40011004, 0x0004 Bytes, ...) -- CPU_ReadMem(4 bytes @ 0x40011004) -- Data:  44 44 44 44  returns 0x00 (0001ms, 0638ms total)
T04F0 000:991 JLINK_ReadMem (0x40011004, 0x0004 Bytes, ...) -- CPU_ReadMem(4 bytes @ 0x40011004) -- Data:  44 44 44 44  returns 0x00 (0000ms, 0638ms total)
T04F0 000:991 JLINK_ReadMem (0x40011004, 0x0004 Bytes, ...) -- CPU_ReadMem(4 bytes @ 0x40011004) -- Data:  44 44 44 44  returns 0x00 (0001ms, 0639ms total)
T04F0 000:992 JLINK_ReadMem (0x40011004, 0x0004 Bytes, ...) -- CPU_ReadMem(4 bytes @ 0x40011004) -- Data:  44 44 44 44  returns 0x00 (0000ms, 0639ms total)
T04F0 000:992 JLINK_ReadMem (0x40011004, 0x0004 Bytes, ...) -- CPU_ReadMem(4 bytes @ 0x40011004) -- Data:  44 44 44 44  returns 0x00 (0001ms, 0640ms total)
T04F0 000:993 JLINK_ReadMem (0x40011004, 0x0004 Bytes, ...) -- CPU_ReadMem(4 bytes @ 0x40011004) -- Data:  44 44 44 44  returns 0x00 (0000ms, 0640ms total)
T04F0 000:993 JLINK_ReadMem (0x40011004, 0x0004 Bytes, ...) -- CPU_ReadMem(4 bytes @ 0x40011004) -- Data:  44 44 44 44  returns 0x00 (0001ms, 0641ms total)
T04F0 000:994 JLINK_ReadMem (0x40011004, 0x0004 Bytes, ...) -- CPU_ReadMem(4 bytes @ 0x40011004) -- Data:  44 44 44 44  returns 0x00 (0000ms, 0641ms total)
T04F0 000:994 JLINK_ReadMem (0x40011004, 0x0004 Bytes, ...) -- CPU_ReadMem(4 bytes @ 0x40011004) -- Data:  44 44 44 44  returns 0x00 (0001ms, 0642ms total)
T04F0 000:995 JLINK_ReadMem (0x40011004, 0x0004 Bytes, ...) -- CPU_ReadMem(4 bytes @ 0x40011004) -- Data:  44 44 44 44  returns 0x00 (0000ms, 0642ms total)
T04F0 000:995 JLINK_ReadMem (0x40011004, 0x0004 Bytes, ...) -- CPU_ReadMem(4 bytes @ 0x40011004) -- Data:  44 44 44 44  returns 0x00 (0000ms, 0642ms total)
T04F0 000:996 JLINK_ReadMem (0x40011004, 0x0004 Bytes, ...) -- CPU_ReadMem(4 bytes @ 0x40011004) -- Data:  44 44 44 44  returns 0x00 (0000ms, 0642ms total)
T04F0 000:996 JLINK_ReadMem (0x40011004, 0x0004 Bytes, ...) -- CPU_ReadMem(4 bytes @ 0x40011004) -- Data:  44 44 44 44  returns 0x00 (0000ms, 0642ms total)
T04F0 000:996 JLINK_ReadMem (0x40011004, 0x0004 Bytes, ...) -- CPU_ReadMem(4 bytes @ 0x40011004) -- Data:  44 44 44 44  returns 0x00 (0001ms, 0643ms total)
T04F0 000:997 JLINK_ReadMem (0x40011004, 0x0004 Bytes, ...) -- CPU_ReadMem(4 bytes @ 0x40011004) -- Data:  44 44 44 44  returns 0x00 (0000ms, 0643ms total)
T04F0 000:997 JLINK_ReadMem (0x40011004, 0x0004 Bytes, ...) -- CPU_ReadMem(4 bytes @ 0x40011004) -- Data:  44 44 44 44  returns 0x00 (0001ms, 0644ms total)
T04F0 001:859 JLINK_ReadMem (0x20000018, 0x0001 Bytes, ...) -- CPU_ReadMem(64 bytes @ 0x20000000) -- Updating C cache (64 bytes @ 0x20000000) -- Read from C cache (1 bytes @ 0x20000018) -- Data:  52  returns 0x00 (0001ms, 0645ms total)
T04F0 001:870 JLINK_ReadMemU32(0xE0001004, 0x0001 Items, ...) -- CPU_ReadMem(4 bytes @ 0xE0001004) -- Data:  A6 07 00 00  returns 0x01 (0001ms, 0646ms total)
T04F0 001:872 JLINK_ReadMem (0x40010800, 0x0018 Bytes, ...) -- CPU_ReadMem(24 bytes @ 0x40010800) -- Data:  44 44 44 44 44 44 84 88 00 00 00 00 00 A0 00 00 ...  returns 0x00 (0001ms, 0647ms total)
T04F0 001:873 JLINK_ReadMem (0x40010818, 0x0004 Bytes, ...) -- CPU_ReadMem(4 bytes @ 0x40010818) -- Data:  00 00 00 00  returns 0x00 (0000ms, 0647ms total)
T04F0 001:873 JLINK_ReadMem (0x40011000, 0x0018 Bytes, ...) -- CPU_ReadMem(24 bytes @ 0x40011000) -- Data:  44 44 44 44 44 44 44 44 00 00 00 00 00 00 00 00 ...  returns 0x00 (0001ms, 0648ms total)
T04F0 001:874 JLINK_ReadMem (0x40011018, 0x0004 Bytes, ...) -- CPU_ReadMem(4 bytes @ 0x40011018) -- Data:  00 00 00 00  returns 0x00 (0000ms, 0648ms total)
T04F0 001:875 JLINK_ReadMem (0x40010C00, 0x0018 Bytes, ...) -- CPU_ReadMem(24 bytes @ 0x40010C00) -- Data:  44 44 48 44 44 44 44 44 00 00 00 00 10 00 00 00 ...  returns 0x00 (0000ms, 0648ms total)
T04F0 001:875 JLINK_ReadMem (0x40010C18, 0x0004 Bytes, ...) -- CPU_ReadMem(4 bytes @ 0x40010C18) -- Data:  00 00 00 00  returns 0x00 (0001ms, 0649ms total)
T14EC 002:826 JLINK_SetBPEx(Addr = 0x08001BF8, Type = 0xFFFFFFF2)  returns 0x00000001 (0000ms, 0649ms total)
T14EC 002:826 JLINK_SetBPEx(Addr = 0x08001BBE, Type = 0xFFFFFFF2)  returns 0x00000002 (0000ms, 0649ms total)
T14EC 002:826 JLINK_SetBPEx(Addr = 0x08001BBA, Type = 0xFFFFFFF2)  returns 0x00000003 (0000ms, 0649ms total)
T14EC 002:826 JLINK_SetBPEx(Addr = 0x08001BB2, Type = 0xFFFFFFF2)  returns 0x00000004 (0000ms, 0649ms total)
T14EC 002:826 JLINK_SetBPEx(Addr = 0x08001B96, Type = 0xFFFFFFF2)  returns 0x00000005 (0000ms, 0649ms total)
T14EC 002:826 JLINK_SetBPEx(Addr = 0x08001ADE, Type = 0xFFFFFFF2)  returns 0x00000006 (0000ms, 0649ms total)
T14EC 002:826 JLINK_SetBPEx(Addr = 0x08001ADA, Type = 0xFFFFFFF2) -- BP[0] @ 0x08001BF8 converted into FlashBP  returns 0x00000007 (0000ms, 0649ms total)
T14EC 002:826 JLINK_SetBPEx(Addr = 0x08001AD8, Type = 0xFFFFFFF2) -- BP[1] @ 0x08001BBE converted into FlashBP  returns 0x00000008 (0000ms, 0649ms total)
T14EC 002:826 JLINK_SetBPEx(Addr = 0x08001ACA, Type = 0xFFFFFFF2) -- BP[2] @ 0x08001BBA converted into FlashBP  returns 0x00000009 (0000ms, 0649ms total)
T14EC 002:826 JLINK_SetBPEx(Addr = 0x08001AC2, Type = 0xFFFFFFF2) -- BP[3] @ 0x08001BB2 converted into FlashBP  returns 0x0000000A (0000ms, 0649ms total)
T14EC 002:826 JLINK_SetBPEx(Addr = 0x08001AB8, Type = 0xFFFFFFF2) -- BP[4] @ 0x08001B96 converted into FlashBP  returns 0x0000000B (0000ms, 0649ms total)
T14EC 002:826 JLINK_SetBPEx(Addr = 0x08001AA2, Type = 0xFFFFFFF2) -- BP[5] @ 0x08001ADE converted into FlashBP  returns 0x0000000C (0000ms, 0649ms total)
T14EC 002:826 JLINK_SetBPEx(Addr = 0x08001A9C, Type = 0xFFFFFFF2) -- BP[6] @ 0x08001ADA converted into FlashBP  returns 0x0000000D (0000ms, 0649ms total)
T14EC 002:826 JLINK_SetBPEx(Addr = 0x080015EE, Type = 0xFFFFFFF2) -- BP[7] @ 0x08001AD8 converted into FlashBP  returns 0x0000000E (0000ms, 0649ms total)
T14EC 002:826 JLINK_SetBPEx(Addr = 0x080015E8, Type = 0xFFFFFFF2) -- BP[8] @ 0x08001ACA converted into FlashBP  returns 0x0000000F (0000ms, 0649ms total)
T14EC 002:826 JLINK_SetBPEx(Addr = 0x080015E2, Type = 0xFFFFFFF2) -- BP[9] @ 0x08001AC2 converted into FlashBP  returns 0x00000010 (0000ms, 0649ms total)
T14EC 002:826 JLINK_SetBPEx(Addr = 0x080018C4, Type = 0xFFFFFFF2) -- BP[10] @ 0x08001AB8 converted into FlashBP  returns 0x00000011 (0000ms, 0649ms total)
T14EC 002:826 JLINK_SetBPEx(Addr = 0x08001218, Type = 0xFFFFFFF2) -- BP[11] @ 0x08001AA2 converted into FlashBP  returns 0x00000012 (0000ms, 0649ms total)
T14EC 002:826 JLINK_Go() -- Read from C cache (2 bytes @ 0x08001814) -- Read from C cache (4 bytes @ 0x0800183C) -- Simulated -- Read from C cache (2 bytes @ 0x08001816) -- Simulated -- Read from C cache (2 bytes @ 0x08001714) -- CPU_WriteMem(8 bytes @ 0x20000290) -- Simulated -- Read from C cache (2 bytes @ 0x08001716) -- Read from C cache (4 bytes @ 0x080017F0) -- Simulated -- Read from C cache (2 bytes @ 0x08001718) -- Not simulated -- CPU_ReadMem(1920 bytes @ 0x08001880)
 -- Updating C cache (1920 bytes @ 0x08001880) -- Read from C cache (2048 bytes @ 0x08001800) -- Updating flash cache (2048 bytes @ 0x08001800) -- Programming range 0x08001800 - 0x08001FFF (  1 Sector, 2 KB) -- CPU clock frequency: 8024 kHz -- CPU_WriteMem(4 bytes @ 0xE0002000) -- CPU_WriteMem(4 bytes @ 0xE0002000) -- CPU_WriteMem(4 bytes @ 0xE0002000) -- CPU_WriteMem(4 bytes @ 0xE0002000) -- CPU_WriteMem(4 bytes @ 0xE0002000) -- CPU_WriteMem(4 bytes @ 0xE0002000) -- CPU_WriteMem(4 bytes @ 0xE0002008)
 -- CPU_WriteMem(4 bytes @ 0xE000200C) -- CPU_WriteMem(4 bytes @ 0xE0002010) -- CPU_WriteMem(4 bytes @ 0xE0002014) -- CPU_WriteMem(4 bytes @ 0xE0002018) -- CPU_WriteMem(4 bytes @ 0xE000201C) (0332ms, 0981ms total)
T14EC 003:259 JLINK_IsHalted()  returns TRUE (0003ms, 0984ms total)
T14EC 003:262 JLINK_Halt()  returns 0x00 (0000ms, 0981ms total)
T14EC 003:262 JLINK_IsHalted()  returns TRUE (0000ms, 0981ms total)
T14EC 003:262 JLINK_IsHalted()  returns TRUE (0000ms, 0981ms total)
T14EC 003:262 JLINK_IsHalted()  returns TRUE (0000ms, 0981ms total)
T14EC 003:262 JLINK_ReadReg(R15 (PC))  returns 0x08001218 (0000ms, 0981ms total)
T14EC 003:262 JLINK_ReadReg(XPSR)  returns 0x21000000 (0000ms, 0981ms total)
T14EC 003:262 JLINK_ClrBPEx(BPHandle = 0x00000001)  returns 0x00 (0000ms, 0981ms total)
T14EC 003:262 JLINK_ClrBPEx(BPHandle = 0x00000002)  returns 0x00 (0000ms, 0981ms total)
T14EC 003:262 JLINK_ClrBPEx(BPHandle = 0x00000003)  returns 0x00 (0000ms, 0981ms total)
T14EC 003:262 JLINK_ClrBPEx(BPHandle = 0x00000004)  returns 0x00 (0000ms, 0981ms total)
T14EC 003:262 JLINK_ClrBPEx(BPHandle = 0x00000005)  returns 0x00 (0000ms, 0981ms total)
T14EC 003:262 JLINK_ClrBPEx(BPHandle = 0x00000006)  returns 0x00 (0000ms, 0981ms total)
T14EC 003:262 JLINK_ClrBPEx(BPHandle = 0x00000007)  returns 0x00 (0000ms, 0981ms total)
T14EC 003:262 JLINK_ClrBPEx(BPHandle = 0x00000008)  returns 0x00 (0000ms, 0981ms total)
T14EC 003:262 JLINK_ClrBPEx(BPHandle = 0x00000009)  returns 0x00 (0000ms, 0981ms total)
T14EC 003:262 JLINK_ClrBPEx(BPHandle = 0x0000000A)  returns 0x00 (0000ms, 0981ms total)
T14EC 003:262 JLINK_ClrBPEx(BPHandle = 0x0000000B)  returns 0x00 (0000ms, 0981ms total)
T14EC 003:262 JLINK_ClrBPEx(BPHandle = 0x0000000C)  returns 0x00 (0000ms, 0981ms total)
T14EC 003:262 JLINK_ClrBPEx(BPHandle = 0x0000000D)  returns 0x00 (0000ms, 0981ms total)
T14EC 003:262 JLINK_ClrBPEx(BPHandle = 0x0000000E)  returns 0x00 (0000ms, 0981ms total)
T14EC 003:262 JLINK_ClrBPEx(BPHandle = 0x0000000F)  returns 0x00 (0000ms, 0981ms total)
T14EC 003:262 JLINK_ClrBPEx(BPHandle = 0x00000010)  returns 0x00 (0000ms, 0981ms total)
T14EC 003:262 JLINK_ClrBPEx(BPHandle = 0x00000011)  returns 0x00 (0000ms, 0981ms total)
T14EC 003:262 JLINK_ClrBPEx(BPHandle = 0x00000012)  returns 0x00 (0000ms, 0981ms total)
T14EC 003:262 JLINK_ReadMemU32(0xE000ED30, 0x0001 Items, ...) -- CPU_ReadMem(4 bytes @ 0xE000ED30) -- Data:  03 00 00 00  returns 0x01 (0001ms, 0982ms total)
T14EC 003:263 JLINK_ReadMemU32(0xE0001028, 0x0001 Items, ...) -- CPU_ReadMem(4 bytes @ 0xE0001028) -- Data:  00 00 00 00  returns 0x01 (0000ms, 0982ms total)
T14EC 003:263 JLINK_ReadMemU32(0xE0001038, 0x0001 Items, ...) -- CPU_ReadMem(4 bytes @ 0xE0001038) -- Data:  00 02 00 00  returns 0x01 (0001ms, 0983ms total)
T14EC 003:264 JLINK_ReadMemU32(0xE0001048, 0x0001 Items, ...) -- CPU_ReadMem(4 bytes @ 0xE0001048) -- Data:  00 00 00 00  returns 0x01 (0000ms, 0983ms total)
T14EC 003:264 JLINK_ReadMemU32(0xE0001058, 0x0001 Items, ...) -- CPU_ReadMem(4 bytes @ 0xE0001058) -- Data:  00 00 00 00  returns 0x01 (0001ms, 0984ms total)
T14EC 003:265 JLINK_ReadReg(R0)  returns 0x20000098 (0000ms, 0984ms total)
T14EC 003:265 JLINK_ReadReg(R1)  returns 0x20000098 (0000ms, 0984ms total)
T14EC 003:265 JLINK_ReadReg(R2)  returns 0x20000098 (0000ms, 0984ms total)
T14EC 003:265 JLINK_ReadReg(R3)  returns 0x20000098 (0000ms, 0984ms total)
T14EC 003:265 JLINK_ReadReg(R4)  returns 0x00000000 (0000ms, 0984ms total)
T14EC 003:265 JLINK_ReadReg(R5)  returns 0x20000034 (0000ms, 0984ms total)
T14EC 003:265 JLINK_ReadReg(R6)  returns 0x00000000 (0000ms, 0984ms total)
T14EC 003:265 JLINK_ReadReg(R7)  returns 0x00000000 (0000ms, 0984ms total)
T14EC 003:265 JLINK_ReadReg(R8)  returns 0x00000000 (0000ms, 0984ms total)
T14EC 003:265 JLINK_ReadReg(R9)  returns 0x20000160 (0000ms, 0984ms total)
T14EC 003:265 JLINK_ReadReg(R10)  returns 0x08001EF4 (0000ms, 0984ms total)
T14EC 003:265 JLINK_ReadReg(R11)  returns 0x00000000 (0000ms, 0984ms total)
T14EC 003:265 JLINK_ReadReg(R12)  returns 0x20000074 (0000ms, 0984ms total)
T14EC 003:265 JLINK_ReadReg(R13 (SP))  returns 0x20000298 (0000ms, 0984ms total)
T14EC 003:265 JLINK_ReadReg(R14)  returns 0x080001C5 (0000ms, 0984ms total)
T14EC 003:265 JLINK_ReadReg(R15 (PC))  returns 0x08001218 (0000ms, 0984ms total)
T14EC 003:265 JLINK_ReadReg(XPSR)  returns 0x21000000 (0000ms, 0984ms total)
T14EC 003:265 JLINK_ReadReg(MSP)  returns 0x20000298 (0000ms, 0984ms total)
T14EC 003:265 JLINK_ReadReg(PSP)  returns 0x20000800 (0000ms, 0984ms total)
T14EC 003:265 JLINK_ReadReg(CFBP)  returns 0x00000000 (0000ms, 0984ms total)
T04F0 003:266 JLINK_ReadMem (0x00000000, 0x0001 Bytes, ...) -- CPU_ReadMem(4 bytes @ 0x00000004) -- CPU_ReadMem(64 bytes @ 0x08000000) -- Updating C cache (64 bytes @ 0x08000000) -- Read from C cache (1 bytes @ 0x08000000) -- Data:  98  returns 0x00 (0001ms, 0985ms total)
T04F0 003:267 JLINK_ReadMemU32(0xE0001004, 0x0001 Items, ...) -- CPU_ReadMem(4 bytes @ 0xE0001004) -- Data:  C4 50 0B 00  returns 0x01 (0001ms, 0986ms total)
T04F0 003:268 JLINK_ReadMem (0x20000018, 0x0001 Bytes, ...) -- CPU_ReadMem(64 bytes @ 0x20000000) -- Updating C cache (64 bytes @ 0x20000000) -- Read from C cache (1 bytes @ 0x20000018) -- Data:  00  returns 0x00 (0001ms, 0987ms total)
T04F0 003:271 JLINK_ReadMem (0x40010800, 0x0018 Bytes, ...) -- CPU_ReadMem(24 bytes @ 0x40010800) -- Data:  44 44 44 44 44 44 84 88 00 00 00 00 00 A0 00 00 ...  returns 0x00 (0000ms, 0987ms total)
T04F0 003:271 JLINK_ReadMem (0x40010818, 0x0004 Bytes, ...) -- CPU_ReadMem(4 bytes @ 0x40010818) -- Data:  00 00 00 00  returns 0x00 (0001ms, 0988ms total)
T04F0 003:272 JLINK_ReadMem (0x40011000, 0x0018 Bytes, ...) -- CPU_ReadMem(24 bytes @ 0x40011000) -- Data:  44 44 44 44 44 44 44 44 00 00 00 00 00 00 00 00 ...  returns 0x00 (0001ms, 0989ms total)
T04F0 003:273 JLINK_ReadMem (0x40011018, 0x0004 Bytes, ...) -- CPU_ReadMem(4 bytes @ 0x40011018) -- Data:  00 00 00 00  returns 0x00 (0000ms, 0989ms total)
T04F0 003:274 JLINK_ReadMem (0x40010C00, 0x0018 Bytes, ...) -- CPU_ReadMem(24 bytes @ 0x40010C00) -- Data:  44 44 48 44 44 44 44 44 00 00 00 00 10 00 00 00 ...  returns 0x00 (0000ms, 0989ms total)
T04F0 003:274 JLINK_ReadMem (0x40010C18, 0x0004 Bytes, ...) -- CPU_ReadMem(4 bytes @ 0x40010C18) -- Data:  00 00 00 00  returns 0x00 (0001ms, 0990ms total)
T04F0 003:275 JLINK_ReadMem (0x08001216, 0x0002 Bytes, ...) -- CPU_ReadMem(64 bytes @ 0x08001200) -- Updating C cache (64 bytes @ 0x08001200) -- Read from C cache (2 bytes @ 0x08001216) -- Data:  08 BD  returns 0x00 (0001ms, 0991ms total)
T04F0 003:276 JLINK_ReadMem (0x08001218, 0x003C Bytes, ...) -- CPU_ReadMem(64 bytes @ 0x08001240) -- Updating C cache (64 bytes @ 0x08001240) -- Read from C cache (60 bytes @ 0x08001218) -- Data:  00 F0 28 F9 FF F7 CC FF 48 20 00 F0 27 FD 00 F0 ...  returns 0x00 (0001ms, 0992ms total)
T14EC 003:729 JLINK_Step() -- Read from C cache (2 bytes @ 0x08001218) -- Read from C cache (2 bytes @ 0x0800121A) -- Simulated  returns 0x00 (0000ms, 0992ms total)
T14EC 003:729 JLINK_ReadReg(R15 (PC))  returns 0x0800146C (0000ms, 0992ms total)
T14EC 003:729 JLINK_ReadReg(XPSR)  returns 0x21000000 (0000ms, 0992ms total)
T14EC 003:729 JLINK_SetBPEx(Addr = 0x08001BF8, Type = 0xFFFFFFF2)  returns 0x00000013 (0000ms, 0992ms total)
T14EC 003:729 JLINK_SetBPEx(Addr = 0x08001BBE, Type = 0xFFFFFFF2)  returns 0x00000014 (0000ms, 0992ms total)
T14EC 003:729 JLINK_SetBPEx(Addr = 0x08001BBA, Type = 0xFFFFFFF2)  returns 0x00000015 (0000ms, 0992ms total)
T14EC 003:729 JLINK_SetBPEx(Addr = 0x08001BB2, Type = 0xFFFFFFF2)  returns 0x00000016 (0000ms, 0992ms total)
T14EC 003:729 JLINK_SetBPEx(Addr = 0x08001B96, Type = 0xFFFFFFF2)  returns 0x00000017 (0000ms, 0992ms total)
T14EC 003:729 JLINK_SetBPEx(Addr = 0x08001ADE, Type = 0xFFFFFFF2)  returns 0x00000018 (0000ms, 0992ms total)
T14EC 003:729 JLINK_SetBPEx(Addr = 0x08001ADA, Type = 0xFFFFFFF2)  returns 0x00000019 (0000ms, 0992ms total)
T14EC 003:729 JLINK_SetBPEx(Addr = 0x08001AD8, Type = 0xFFFFFFF2)  returns 0x0000001A (0000ms, 0992ms total)
T14EC 003:729 JLINK_SetBPEx(Addr = 0x08001ACA, Type = 0xFFFFFFF2)  returns 0x0000001B (0000ms, 0992ms total)
T14EC 003:729 JLINK_SetBPEx(Addr = 0x08001AC2, Type = 0xFFFFFFF2)  returns 0x0000001C (0000ms, 0992ms total)
T14EC 003:729 JLINK_SetBPEx(Addr = 0x08001AB8, Type = 0xFFFFFFF2)  returns 0x0000001D (0000ms, 0992ms total)
T14EC 003:729 JLINK_SetBPEx(Addr = 0x08001AA2, Type = 0xFFFFFFF2)  returns 0x0000001E (0000ms, 0992ms total)
T14EC 003:729 JLINK_SetBPEx(Addr = 0x08001A9C, Type = 0xFFFFFFF2)  returns 0x0000001F (0000ms, 0992ms total)
T14EC 003:729 JLINK_SetBPEx(Addr = 0x080015EE, Type = 0xFFFFFFF2)  returns 0x00000020 (0000ms, 0992ms total)
T14EC 003:729 JLINK_SetBPEx(Addr = 0x080015E8, Type = 0xFFFFFFF2)  returns 0x00000021 (0000ms, 0992ms total)
T14EC 003:729 JLINK_SetBPEx(Addr = 0x080015E2, Type = 0xFFFFFFF2)  returns 0x00000022 (0000ms, 0992ms total)
T14EC 003:729 JLINK_SetBPEx(Addr = 0x080018C4, Type = 0xFFFFFFF2)  returns 0x00000023 (0000ms, 0992ms total)
T14EC 003:729 JLINK_SetBPEx(Addr = 0x08001218, Type = 0xFFFFFFF2)  returns 0x00000024 (0000ms, 0992ms total)
T14EC 003:729 JLINK_Go() -- CPU_WriteMem(4 bytes @ 0xE0002000) -- CPU_WriteMem(4 bytes @ 0xE0002000) -- CPU_WriteMem(4 bytes @ 0xE0002000) -- CPU_WriteMem(4 bytes @ 0xE0002000) -- CPU_WriteMem(4 bytes @ 0xE0002000) -- CPU_WriteMem(4 bytes @ 0xE0002000) -- CPU_WriteMem(4 bytes @ 0xE0001004) (0005ms, 0997ms total)
T14EC 003:835 JLINK_IsHalted()  returns TRUE (0003ms, 1000ms total)
T14EC 003:838 JLINK_Halt()  returns 0x00 (0000ms, 0997ms total)
T14EC 003:838 JLINK_IsHalted()  returns TRUE (0000ms, 0997ms total)
T14EC 003:838 JLINK_IsHalted()  returns TRUE (0000ms, 0997ms total)
T14EC 003:838 JLINK_IsHalted()  returns TRUE (0000ms, 0997ms total)
T14EC 003:838 JLINK_ReadReg(R15 (PC))  returns 0x080018C4 (0000ms, 0997ms total)
T14EC 003:838 JLINK_ReadReg(XPSR)  returns 0x01000000 (0000ms, 0997ms total)
T14EC 003:838 JLINK_ClrBPEx(BPHandle = 0x00000013)  returns 0x00 (0000ms, 0997ms total)
T14EC 003:838 JLINK_ClrBPEx(BPHandle = 0x00000014)  returns 0x00 (0000ms, 0997ms total)
T14EC 003:838 JLINK_ClrBPEx(BPHandle = 0x00000015)  returns 0x00 (0000ms, 0997ms total)
T14EC 003:838 JLINK_ClrBPEx(BPHandle = 0x00000016)  returns 0x00 (0000ms, 0997ms total)
T14EC 003:838 JLINK_ClrBPEx(BPHandle = 0x00000017)  returns 0x00 (0000ms, 0997ms total)
T14EC 003:838 JLINK_ClrBPEx(BPHandle = 0x00000018)  returns 0x00 (0000ms, 0997ms total)
T14EC 003:838 JLINK_ClrBPEx(BPHandle = 0x00000019)  returns 0x00 (0000ms, 0997ms total)
T14EC 003:838 JLINK_ClrBPEx(BPHandle = 0x0000001A)  returns 0x00 (0000ms, 0997ms total)
T14EC 003:838 JLINK_ClrBPEx(BPHandle = 0x0000001B)  returns 0x00 (0000ms, 0997ms total)
T14EC 003:838 JLINK_ClrBPEx(BPHandle = 0x0000001C)  returns 0x00 (0000ms, 0997ms total)
T14EC 003:838 JLINK_ClrBPEx(BPHandle = 0x0000001D)  returns 0x00 (0000ms, 0997ms total)
T14EC 003:838 JLINK_ClrBPEx(BPHandle = 0x0000001E)  returns 0x00 (0000ms, 0997ms total)
T14EC 003:838 JLINK_ClrBPEx(BPHandle = 0x0000001F)  returns 0x00 (0000ms, 0997ms total)
T14EC 003:838 JLINK_ClrBPEx(BPHandle = 0x00000020)  returns 0x00 (0000ms, 0997ms total)
T14EC 003:838 JLINK_ClrBPEx(BPHandle = 0x00000021)  returns 0x00 (0000ms, 0997ms total)
T14EC 003:838 JLINK_ClrBPEx(BPHandle = 0x00000022)  returns 0x00 (0000ms, 0997ms total)
T14EC 003:838 JLINK_ClrBPEx(BPHandle = 0x00000023)  returns 0x00 (0000ms, 0997ms total)
T14EC 003:838 JLINK_ClrBPEx(BPHandle = 0x00000024)  returns 0x00 (0000ms, 0997ms total)
T14EC 003:838 JLINK_ReadMemU32(0xE000ED30, 0x0001 Items, ...) -- CPU_ReadMem(4 bytes @ 0xE000ED30) -- Data:  03 00 00 00  returns 0x01 (0001ms, 0998ms total)
T14EC 003:839 JLINK_ReadMemU32(0xE0001028, 0x0001 Items, ...) -- CPU_ReadMem(4 bytes @ 0xE0001028) -- Data:  00 00 00 00  returns 0x01 (0000ms, 0998ms total)
T14EC 003:839 JLINK_ReadMemU32(0xE0001038, 0x0001 Items, ...) -- CPU_ReadMem(4 bytes @ 0xE0001038) -- Data:  00 02 00 00  returns 0x01 (0001ms, 0999ms total)
T14EC 003:840 JLINK_ReadMemU32(0xE0001048, 0x0001 Items, ...) -- CPU_ReadMem(4 bytes @ 0xE0001048) -- Data:  00 00 00 00  returns 0x01 (0000ms, 0999ms total)
T14EC 003:840 JLINK_ReadMemU32(0xE0001058, 0x0001 Items, ...) -- CPU_ReadMem(4 bytes @ 0xE0001058) -- Data:  00 00 00 00  returns 0x01 (0001ms, 1000ms total)
T14EC 003:841 JLINK_ReadReg(R0)  returns 0x000000C1 (0000ms, 1000ms total)
T14EC 003:841 JLINK_ReadReg(R1)  returns 0x0000002D (0000ms, 1000ms total)
T14EC 003:841 JLINK_ReadReg(R2)  returns 0x20000032 (0000ms, 1000ms total)
T14EC 003:841 JLINK_ReadReg(R3)  returns 0x20000030 (0000ms, 1000ms total)
T14EC 003:841 JLINK_ReadReg(R4)  returns 0x00000000 (0000ms, 1000ms total)
T14EC 003:841 JLINK_ReadReg(R5)  returns 0x20000034 (0000ms, 1000ms total)
T14EC 003:841 JLINK_ReadReg(R6)  returns 0x00000000 (0000ms, 1000ms total)
T14EC 003:841 JLINK_ReadReg(R7)  returns 0x00000000 (0000ms, 1000ms total)
T14EC 003:841 JLINK_ReadReg(R8)  returns 0x00000000 (0000ms, 1000ms total)
T14EC 003:841 JLINK_ReadReg(R9)  returns 0x20000160 (0000ms, 1000ms total)
T14EC 003:841 JLINK_ReadReg(R10)  returns 0x08001EF4 (0000ms, 1000ms total)
T14EC 003:841 JLINK_ReadReg(R11)  returns 0x00000000 (0000ms, 1000ms total)
T14EC 003:841 JLINK_ReadReg(R12)  returns 0x00000100 (0000ms, 1000ms total)
T14EC 003:841 JLINK_ReadReg(R13 (SP))  returns 0x20000280 (0000ms, 1000ms total)
T14EC 003:841 JLINK_ReadReg(R14)  returns 0x08001963 (0000ms, 1000ms total)
T14EC 003:841 JLINK_ReadReg(R15 (PC))  returns 0x080018C4 (0000ms, 1000ms total)
T14EC 003:841 JLINK_ReadReg(XPSR)  returns 0x01000000 (0000ms, 1000ms total)
T14EC 003:841 JLINK_ReadReg(MSP)  returns 0x20000280 (0000ms, 1000ms total)
T14EC 003:841 JLINK_ReadReg(PSP)  returns 0x20000800 (0000ms, 1000ms total)
